T6768 000:010.801   SEGGER J-Link V6.86 Log File
T6768 000:011.007   DLL Compiled: Sep 24 2020 17:31:31
T6768 000:011.019   Logging started @ 2022-11-21 06:10
T6768 000:011.030 - 11.035ms
T6768 000:011.051 JLINK_SetWarnOutHandler(...)
T6768 000:011.064 - 0.018ms
T6768 000:011.077 JLINK_OpenEx(...)
T6768 000:014.951   Firmware: J-Link V9 compiled Dec 13 2019 11:14:50
T6768 000:015.715   Decompressing FW timestamp took 400 us
T6768 000:021.836   Hardware: V9.70
T6768 000:021.869   S/N: 57765224
T6768 000:021.882   OEM: SEGGER
T6768 000:021.894   Feature(s): RDI, GDB, FlashDL, FlashBP, JFlash
T6768 000:022.829   TELNET listener socket opened on port 19021
T6768 000:023.116   WEBSRV Starting webserver
T6768 000:023.319   WEBSRV Webserver running on local port 19080
T6768 000:023.346 - 12.274ms returns "O.K."
T6768 000:023.373 JLINK_GetEmuCaps()
T6768 000:023.385 - 0.017ms returns 0xB9FF7BBF
T6768 000:023.404 JLINK_TIF_GetAvailable(...)
T6768 000:023.551 - 0.153ms
T6768 000:023.567 JLINK_SetErrorOutHandler(...)
T6768 000:023.575 - 0.012ms
T6768 000:023.887 JLINK_ExecCommand("ProjectFile = "E:\PROJECT\N10\HC32L130_N10_newpixscreen\user\JLinkSettings.ini"", ...). 
T6768 000:041.130   XML file found at: C:\Keil_v5\ARM\Segger\JLinkDevices.xml
T6768 000:041.827   C:\Keil_v5\ARM\Segger\JLinkDevices.xml evaluated successfully.
T6768 000:101.323   Device "CORTEX-M0+" selected.
T6768 000:101.755 - 77.875ms returns 0x00
T6768 000:105.690 JLINK_ExecCommand("Device = HC32L136J8TA", ...). 
T6768 000:109.231   Device "CORTEX-M0+" selected.
T6768 000:109.659 - 3.955ms returns 0x00
T6768 000:109.686 JLINK_GetHardwareVersion()
T6768 000:109.694 - 0.013ms returns 97000
T6768 000:109.720 JLINK_GetDLLVersion()
T6768 000:109.729 - 0.012ms returns 68600
T6768 000:109.739 JLINK_GetOEMString(...)
T6768 000:109.749 JLINK_GetFirmwareString(...)
T6768 000:109.757 - 0.012ms
T6768 000:120.364 JLINK_GetDLLVersion()
T6768 000:120.388 - 0.028ms returns 68600
T6768 000:120.399 JLINK_GetCompileDateTime()
T6768 000:120.407 - 0.012ms
T6768 000:123.657 JLINK_GetFirmwareString(...)
T6768 000:123.675 - 0.022ms
T6768 000:126.691 JLINK_GetHardwareVersion()
T6768 000:126.706 - 0.019ms returns 97000
T6768 000:130.121 JLINK_GetSN()
T6768 000:130.145 - 0.029ms returns 57765224
T6768 000:133.296 JLINK_GetOEMString(...)
T6768 000:139.923 JLINK_TIF_Select(JLINKARM_TIF_SWD)
T6768 000:140.410 - 0.497ms returns 0x00
T6768 000:140.428 JLINK_HasError()
T6768 000:140.454 JLINK_SetSpeed(5000)
T6768 000:140.523 - 0.075ms
T6768 000:140.538 JLINK_GetId()
T6768 000:144.210   Found SW-DP with ID 0x0BC11477
T6768 000:146.739   Old FW that does not support reading DPIDR via DAP jobs
T6768 000:150.792   Unknown DP version. Assuming DPv0
T6768 000:154.589   Scanning AP map to find all available APs
T6768 000:158.625   AP[1]: Stopped AP scan as end of AP map has been reached
T6768 000:162.082   AP[0]: AHB-AP (IDR: 0x04770031)
T6768 000:165.506   Iterating through AP map to find AHB-AP to use
T6768 000:169.846   AP[0]: Core found
T6768 000:172.962   AP[0]: AHB-AP ROM base: 0xE00FF000
T6768 000:176.608   CPUID register: 0x410CC601. Implementer code: 0x41 (ARM)
T6768 000:180.314   Found Cortex-M0 r0p1, Little endian.
T6768 000:281.191   -- Max. mem block: 0x00010DF0
T6768 000:281.321   CPU_ReadMem(4 bytes @ 0xE000EDF0)
T6768 000:282.019   CPU_WriteMem(4 bytes @ 0xE000EDF0)
T6768 000:282.649   CPU_ReadMem(4 bytes @ 0xE0002000)
T6768 000:299.483   FPUnit: 4 code (BP) slots and 0 literal slots
T6768 000:299.576   CPU_ReadMem(4 bytes @ 0xE000EDFC)
T6768 000:300.146   CPU_WriteMem(4 bytes @ 0xE000EDFC)
T6768 000:300.700   CPU_ReadMem(4 bytes @ 0xE0001000)
T6768 000:301.255   CPU_WriteMem(4 bytes @ 0xE0001000)
T6768 000:314.380   CoreSight components:
T6768 000:320.943   ROMTbl[0] @ E00FF000
T6768 000:320.989   CPU_ReadMem(64 bytes @ 0xE00FF000)
T6768 000:321.644   CPU_ReadMem(32 bytes @ 0xE000EFE0)
T6768 000:330.327   ROMTbl[0][0]: E000E000, CID: B105E00D, PID: 000BB008 SCS
T6768 000:330.380   CPU_ReadMem(32 bytes @ 0xE0001FE0)
T6768 000:337.470   ROMTbl[0][1]: E0001000, CID: B105E00D, PID: 000BB00A DWT
T6768 000:337.514   CPU_ReadMem(32 bytes @ 0xE0002FE0)
T6768 000:343.620   ROMTbl[0][2]: E0002000, CID: B105E00D, PID: 000BB00B FPB
T6768 000:344.259 - 203.739ms returns 0x0BC11477
T6768 000:344.290 JLINK_GetDLLVersion()
T6768 000:344.299 - 0.012ms returns 68600
T6768 000:344.368 JLINK_CORE_GetFound()
T6768 000:344.383 - 0.020ms returns 0x60000FF
T6768 000:344.397 JLINK_GetDebugInfo(0x100 = JLINKARM_ROM_TABLE_ADDR_INDEX)
T6768 000:344.409   Value=0xE00FF000
T6768 000:344.425 - 0.033ms returns 0
T6768 000:348.419 JLINK_GetDebugInfo(0x100 = JLINKARM_ROM_TABLE_ADDR_INDEX)
T6768 000:348.445   Value=0xE00FF000
T6768 000:348.458 - 0.043ms returns 0
T6768 000:348.468 JLINK_GetDebugInfo(0x101 = JLINKARM_DEBUG_INFO_ETM_ADDR_INDEX)
T6768 000:348.477   Value=0x00000000
T6768 000:348.489 - 0.024ms returns 0
T6768 000:348.515 JLINK_ReadMemEx(0xE0041FF0, 0x10 Bytes, Flags = 0x02000004)
T6768 000:348.557   CPU_ReadMem(16 bytes @ 0xE0041FF0)
T6768 000:348.932   Data:  00 00 00 00 00 00 00 00 00 00 00 00 00 00 00 00
T6768 000:348.947 - 0.436ms returns 16 (0x10)
T6768 000:348.959 JLINK_GetDebugInfo(0x102 = JLINKARM_DEBUG_INFO_MTB_ADDR_INDEX)
T6768 000:348.968   Value=0x00000000
T6768 000:348.980 - 0.025ms returns 0
T6768 000:348.990 JLINK_GetDebugInfo(0x103 = JLINKARM_DEBUG_INFO_TPIU_ADDR_INDEX)
T6768 000:348.999   Value=0x00000000
T6768 000:349.011 - 0.024ms returns 0
T6768 000:349.020 JLINK_ReadMemEx(0xE0040FF0, 0x10 Bytes, Flags = 0x02000004)
T6768 000:349.034   CPU_ReadMem(16 bytes @ 0xE0040FF0)
T6768 000:349.441   Data:  00 00 00 00 00 00 00 00 00 00 00 00 00 00 00 00
T6768 000:349.457 - 0.440ms returns 16 (0x10)
T6768 000:349.469 JLINK_GetDebugInfo(0x104 = JLINKARM_DEBUG_INFO_ITM_ADDR_INDEX)
T6768 000:349.478   Value=0xE0000000
T6768 000:349.490 - 0.025ms returns 0
T6768 000:349.500 JLINK_GetDebugInfo(0x105 = JLINKARM_DEBUG_INFO_DWT_ADDR_INDEX)
T6768 000:349.508   Value=0xE0001000
T6768 000:349.520 - 0.024ms returns 0
T6768 000:349.530 JLINK_GetDebugInfo(0x106 = JLINKARM_DEBUG_INFO_FPB_ADDR_INDEX)
T6768 000:349.538   Value=0xE0002000
T6768 000:349.550 - 0.024ms returns 0
T6768 000:349.559 JLINK_GetDebugInfo(0x107 = JLINKARM_DEBUG_INFO_NVIC_ADDR_INDEX)
T6768 000:349.568   Value=0xE000E000
T6768 000:349.580 - 0.024ms returns 0
T6768 000:349.589 JLINK_GetDebugInfo(0x10C = JLINKARM_DEBUG_INFO_DBG_ADDR_INDEX)
T6768 000:349.598   Value=0xE000EDF0
T6768 000:349.610 - 0.024ms returns 0
T6768 000:349.619 JLINK_GetDebugInfo(0x01 = Unknown)
T6768 000:349.628   Value=0x00000000
T6768 000:349.639 - 0.024ms returns 0
T6768 000:349.649 JLINK_ReadMemU32(0xE000ED00, 0x1 Items)
T6768 000:349.662   CPU_ReadMem(4 bytes @ 0xE000ED00)
T6768 000:349.927   Data:  01 C6 0C 41
T6768 000:349.942   Debug reg: CPUID
T6768 000:349.954 - 0.309ms returns 1 (0x1)
T6768 000:349.966 JLINK_GetDebugInfo(0x10F = JLINKARM_DEBUG_INFO_HAS_CORTEX_M_SECURITY_EXT_INDEX)
T6768 000:349.975   Value=0x00000000
T6768 000:349.987 - 0.025ms returns 0
T6768 000:349.998 JLINK_HasError()
T6768 000:350.008 JLINK_SetResetType(JLINKARM_CM3_RESET_TYPE_NORMAL)
T6768 000:350.017 - 0.012ms returns JLINKARM_CM3_RESET_TYPE_NORMAL
T6768 000:350.027 JLINK_Reset()
T6768 000:350.061   CPU is running
T6768 000:350.076   CPU_WriteMem(4 bytes @ 0xE000EDF0)
T6768 000:350.374   CPU is running
T6768 000:350.389   CPU_WriteMem(4 bytes @ 0xE000EDFC)
T6768 000:354.055   Reset: Halt core after reset via DEMCR.VC_CORERESET.
T6768 000:358.067   Reset: Reset device via AIRCR.SYSRESETREQ.
T6768 000:358.096   CPU is running
T6768 000:358.112   CPU_WriteMem(4 bytes @ 0xE000ED0C)
T6768 000:410.465   CPU_ReadMem(4 bytes @ 0xE000EDF0)
T6768 000:410.959   CPU_ReadMem(4 bytes @ 0xE000EDF0)
T6768 000:411.511   CPU is running
T6768 000:411.563   CPU_WriteMem(4 bytes @ 0xE000EDF0)
T6768 000:412.025   CPU is running
T6768 000:412.077   CPU_WriteMem(4 bytes @ 0xE000EDFC)
T6768 000:417.662   CPU_ReadMem(4 bytes @ 0xE000EDF0)
T6768 000:420.776   CPU_WriteMem(4 bytes @ 0xE0002000)
T6768 000:421.313   CPU_ReadMem(4 bytes @ 0xE000EDFC)
T6768 000:421.836   CPU_ReadMem(4 bytes @ 0xE0001000)
T6768 000:422.359   CPU_WriteMem(4 bytes @ 0xE0001000)
T6768 000:422.823 - 72.819ms
T6768 000:422.881 JLINK_Halt()
T6768 000:422.908 - 0.039ms returns 0x00
T6768 000:423.060 JLINK_ReadMemU32(0xE000EDF0, 0x1 Items)
T6768 000:423.116   CPU_ReadMem(4 bytes @ 0xE000EDF0)
T6768 000:423.660   Data:  03 00 03 00
T6768 000:423.709   Debug reg: DHCSR
T6768 000:423.746 - 0.699ms returns 1 (0x1)
T6768 000:423.810 JLINK_WriteU32_64(0xE000EDF0, 0xA05F0003)
T6768 000:424.189   Debug reg: DHCSR
T6768 000:424.637   CPU_WriteMem(4 bytes @ 0xE000EDF0)
T6768 000:425.077 - 1.287ms returns 0 (0x00000000)
T6768 000:425.121 JLINK_WriteU32_64(0xE000EDFC, 0x01000000)
T6768 000:425.149   Debug reg: DEMCR
T6768 000:425.199   CPU_WriteMem(4 bytes @ 0xE000EDFC)
T6768 000:425.598 - 0.497ms returns 0 (0x00000000)
T6768 000:470.710 JLINK_GetHWStatus(...)
T6768 000:470.931 - 0.233ms returns 0
T6768 000:488.313 JLINK_GetNumBPUnits(Type = 0xFFFFFF00)
T6768 000:488.346 - 0.041ms returns 0x04
T6768 000:488.364 JLINK_GetNumBPUnits(Type = 0xF0)
T6768 000:488.379 - 0.021ms returns 0x2000
T6768 000:488.396 JLINK_GetNumWPUnits()
T6768 000:488.410 - 0.020ms returns 2
T6768 000:501.340 JLINK_GetSpeed()
T6768 000:501.360 - 0.024ms returns 4000
T6768 000:507.575 JLINK_ReadMemU32(0xE000E004, 0x1 Items)
T6768 000:507.606   CPU_ReadMem(4 bytes @ 0xE000E004)
T6768 000:507.876   Data:  00 00 00 00
T6768 000:507.893 - 0.323ms returns 1 (0x1)
T6768 000:507.910 JLINK_Halt()
T6768 000:507.919 - 0.013ms returns 0x00
T6768 000:507.929 JLINK_IsHalted()
T6768 000:507.938 - 0.013ms returns TRUE
T6768 000:511.827 JLINK_WriteMem(0x20000000, 0x218 Bytes, ...)
T6768 000:511.846   Data:  00 BE 0A E0 0D 78 2D 06 68 40 08 24 40 00 00 D3 ...
T6768 000:512.159   CPU_WriteMem(536 bytes @ 0x20000000)
T6768 000:514.938 - 3.128ms returns 0x218
T6768 000:515.018 JLINK_HasError()
T6768 000:515.032 JLINK_WriteReg(R0, 0x00000000)
T6768 000:515.046 - 0.018ms returns 0
T6768 000:515.057 JLINK_WriteReg(R1, 0x00B71B00)
T6768 000:515.066 - 0.013ms returns 0
T6768 000:515.076 JLINK_WriteReg(R2, 0x00000001)
T6768 000:515.085 - 0.013ms returns 0
T6768 000:515.095 JLINK_WriteReg(R3, 0x00000000)
T6768 000:515.104 - 0.012ms returns 0
T6768 000:515.114 JLINK_WriteReg(R4, 0x00000000)
T6768 000:515.122 - 0.012ms returns 0
T6768 000:515.132 JLINK_WriteReg(R5, 0x00000000)
T6768 000:515.141 - 0.013ms returns 0
T6768 000:515.151 JLINK_WriteReg(R6, 0x00000000)
T6768 000:515.160 - 0.012ms returns 0
T6768 000:515.170 JLINK_WriteReg(R7, 0x00000000)
T6768 000:515.179 - 0.013ms returns 0
T6768 000:515.188 JLINK_WriteReg(R8, 0x00000000)
T6768 000:515.216 - 0.031ms returns 0
T6768 000:515.226 JLINK_WriteReg(R9, 0x20000214)
T6768 000:515.234 - 0.012ms returns 0
T6768 000:515.244 JLINK_WriteReg(R10, 0x00000000)
T6768 000:515.253 - 0.012ms returns 0
T6768 000:515.263 JLINK_WriteReg(R11, 0x00000000)
T6768 000:515.271 - 0.012ms returns 0
T6768 000:515.281 JLINK_WriteReg(R12, 0x00000000)
T6768 000:515.290 - 0.012ms returns 0
T6768 000:515.300 JLINK_WriteReg(R13 (SP), 0x20001000)
T6768 000:515.309 - 0.013ms returns 0
T6768 000:515.319 JLINK_WriteReg(R14, 0x20000001)
T6768 000:515.328 - 0.012ms returns 0
T6768 000:515.338 JLINK_WriteReg(R15 (PC), 0x20000040)
T6768 000:515.596 - 0.263ms returns 0
T6768 000:515.608 JLINK_WriteReg(XPSR, 0x01000000)
T6768 000:515.617 - 0.013ms returns 0
T6768 000:515.627 JLINK_WriteReg(MSP, 0x20001000)
T6768 000:515.636 - 0.012ms returns 0
T6768 000:515.646 JLINK_WriteReg(PSP, 0x20001000)
T6768 000:515.654 - 0.012ms returns 0
T6768 000:515.664 JLINK_WriteReg(CFBP, 0x00000000)
T6768 000:515.673 - 0.012ms returns 0
T6768 000:515.683 JLINK_SetBPEx(Addr = 0x20000000, Type = 0xFFFFFFF2)
T6768 000:515.698   CPU_ReadMem(4 bytes @ 0x20000000)
T6768 000:515.967   CPU_WriteMem(4 bytes @ 0x20000000)
T6768 000:516.214   CPU_ReadMem(4 bytes @ 0x20000000)
T6768 000:516.519   CPU_WriteMem(4 bytes @ 0x20000000)
T6768 000:516.749   CPU_ReadMem(2 bytes @ 0x20000000)
T6768 000:516.968 - 1.291ms returns 0x00000001
T6768 000:516.982 JLINK_Go()
T6768 000:516.997   CPU_WriteMem(2 bytes @ 0x20000000)
T6768 000:517.232   CPU_ReadMem(4 bytes @ 0xE0001000)
T6768 000:517.494   CPU_WriteMem(4 bytes @ 0xE0001000)
T6768 000:517.510   CPU_WriteMem(4 bytes @ 0xE0002008)
T6768 000:517.522   CPU_WriteMem(4 bytes @ 0xE000200C)
T6768 000:517.535   CPU_WriteMem(4 bytes @ 0xE0002010)
T6768 000:517.547   CPU_WriteMem(4 bytes @ 0xE0002014)
T6768 000:518.373   CPU_WriteMem(4 bytes @ 0xE0001004)
T6768 000:520.390 - 3.415ms
T6768 000:520.405 JLINK_IsHalted()
T6768 000:522.188   CPU_ReadMem(2 bytes @ 0x20000000)
T6768 000:522.514 - 2.116ms returns TRUE
T6768 000:522.530 JLINK_ReadReg(R15 (PC))
T6768 000:522.541 - 0.015ms returns 0x20000000
T6768 000:522.551 JLINK_ClrBPEx(BPHandle = 0x00000001)
T6768 000:522.560 - 0.013ms returns 0x00
T6768 000:522.570 JLINK_ReadReg(R0)
T6768 000:522.579 - 0.013ms returns 0x00000000
T6768 000:523.341 JLINK_HasError()
T6768 000:523.357 JLINK_WriteReg(R0, 0x00000000)
T6768 000:523.369 - 0.015ms returns 0
T6768 000:523.379 JLINK_WriteReg(R1, 0x00B71B00)
T6768 000:523.388 - 0.013ms returns 0
T6768 000:523.398 JLINK_WriteReg(R2, 0x00000001)
T6768 000:523.406 - 0.012ms returns 0
T6768 000:523.416 JLINK_WriteReg(R3, 0x00000000)
T6768 000:523.425 - 0.012ms returns 0
T6768 000:523.434 JLINK_WriteReg(R4, 0x00000000)
T6768 000:523.443 - 0.012ms returns 0
T6768 000:523.453 JLINK_WriteReg(R5, 0x00000000)
T6768 000:523.462 - 0.012ms returns 0
T6768 000:523.471 JLINK_WriteReg(R6, 0x00000000)
T6768 000:523.480 - 0.012ms returns 0
T6768 000:523.490 JLINK_WriteReg(R7, 0x00000000)
T6768 000:523.498 - 0.012ms returns 0
T6768 000:523.508 JLINK_WriteReg(R8, 0x00000000)
T6768 000:523.517 - 0.012ms returns 0
T6768 000:523.527 JLINK_WriteReg(R9, 0x20000214)
T6768 000:523.535 - 0.012ms returns 0
T6768 000:523.545 JLINK_WriteReg(R10, 0x00000000)
T6768 000:523.554 - 0.012ms returns 0
T6768 000:523.564 JLINK_WriteReg(R11, 0x00000000)
T6768 000:523.572 - 0.012ms returns 0
T6768 000:523.582 JLINK_WriteReg(R12, 0x00000000)
T6768 000:523.591 - 0.012ms returns 0
T6768 000:523.600 JLINK_WriteReg(R13 (SP), 0x20001000)
T6768 000:523.610 - 0.013ms returns 0
T6768 000:523.620 JLINK_WriteReg(R14, 0x20000001)
T6768 000:523.628 - 0.012ms returns 0
T6768 000:523.638 JLINK_WriteReg(R15 (PC), 0x20000116)
T6768 000:523.647 - 0.013ms returns 0
T6768 000:523.657 JLINK_WriteReg(XPSR, 0x01000000)
T6768 000:523.666 - 0.013ms returns 0
T6768 000:523.675 JLINK_WriteReg(MSP, 0x20001000)
T6768 000:523.684 - 0.012ms returns 0
T6768 000:523.694 JLINK_WriteReg(PSP, 0x20001000)
T6768 000:523.703 - 0.013ms returns 0
T6768 000:523.712 JLINK_WriteReg(CFBP, 0x00000000)
T6768 000:523.721 - 0.012ms returns 0
T6768 000:523.731 JLINK_SetBPEx(Addr = 0x20000000, Type = 0xFFFFFFF2)
T6768 000:523.741 - 0.013ms returns 0x00000002
T6768 000:523.751 JLINK_Go()
T6768 000:523.766   CPU_ReadMem(4 bytes @ 0xE0001000)
T6768 000:524.007   CPU_WriteMem(4 bytes @ 0xE0001000)
T6768 000:526.088 - 2.343ms
T6768 000:526.105 JLINK_IsHalted()
T6768 000:526.362 - 0.263ms returns FALSE
T6768 000:526.377 JLINK_HasError()
T6768 000:571.383 JLINK_IsHalted()
T6768 000:573.261   CPU_ReadMem(2 bytes @ 0x20000000)
T6768 000:573.602 - 2.226ms returns TRUE
T6768 000:573.619 JLINK_ReadReg(R15 (PC))
T6768 000:573.631 - 0.016ms returns 0x20000000
T6768 000:573.642 JLINK_ClrBPEx(BPHandle = 0x00000002)
T6768 000:573.651 - 0.013ms returns 0x00
T6768 000:573.661 JLINK_ReadReg(R0)
T6768 000:573.670 - 0.013ms returns 0x00000000
T6768 000:625.984 JLINK_HasError()
T6768 000:626.011 JLINK_WriteReg(R0, 0x00000001)
T6768 000:626.027 - 0.020ms returns 0
T6768 000:626.038 JLINK_WriteReg(R1, 0x00B71B00)
T6768 000:626.047 - 0.013ms returns 0
T6768 000:626.057 JLINK_WriteReg(R2, 0x00000001)
T6768 000:626.066 - 0.013ms returns 0
T6768 000:626.076 JLINK_WriteReg(R3, 0x00000000)
T6768 000:626.085 - 0.012ms returns 0
T6768 000:626.094 JLINK_WriteReg(R4, 0x00000000)
T6768 000:626.168 - 0.086ms returns 0
T6768 000:626.189 JLINK_WriteReg(R5, 0x00000000)
T6768 000:626.199 - 0.014ms returns 0
T6768 000:626.209 JLINK_WriteReg(R6, 0x00000000)
T6768 000:626.218 - 0.012ms returns 0
T6768 000:626.228 JLINK_WriteReg(R7, 0x00000000)
T6768 000:626.236 - 0.012ms returns 0
T6768 000:626.246 JLINK_WriteReg(R8, 0x00000000)
T6768 000:626.255 - 0.013ms returns 0
T6768 000:626.265 JLINK_WriteReg(R9, 0x20000214)
T6768 000:626.274 - 0.012ms returns 0
T6768 000:626.283 JLINK_WriteReg(R10, 0x00000000)
T6768 000:626.292 - 0.012ms returns 0
T6768 000:626.302 JLINK_WriteReg(R11, 0x00000000)
T6768 000:626.311 - 0.012ms returns 0
T6768 000:626.320 JLINK_WriteReg(R12, 0x00000000)
T6768 000:626.329 - 0.012ms returns 0
T6768 000:626.339 JLINK_WriteReg(R13 (SP), 0x20001000)
T6768 000:626.348 - 0.013ms returns 0
T6768 000:626.358 JLINK_WriteReg(R14, 0x20000001)
T6768 000:626.367 - 0.012ms returns 0
T6768 000:626.376 JLINK_WriteReg(R15 (PC), 0x20000112)
T6768 000:626.385 - 0.013ms returns 0
T6768 000:626.395 JLINK_WriteReg(XPSR, 0x01000000)
T6768 000:626.404 - 0.012ms returns 0
T6768 000:626.414 JLINK_WriteReg(MSP, 0x20001000)
T6768 000:626.422 - 0.012ms returns 0
T6768 000:626.432 JLINK_WriteReg(PSP, 0x20001000)
T6768 000:626.441 - 0.012ms returns 0
T6768 000:626.450 JLINK_WriteReg(CFBP, 0x00000000)
T6768 000:626.459 - 0.012ms returns 0
T6768 000:626.469 JLINK_SetBPEx(Addr = 0x20000000, Type = 0xFFFFFFF2)
T6768 000:626.480 - 0.015ms returns 0x00000003
T6768 000:626.490 JLINK_Go()
T6768 000:626.507   CPU_ReadMem(4 bytes @ 0xE0001000)
T6768 000:626.844   CPU_WriteMem(4 bytes @ 0xE0001000)
T6768 000:629.109 - 2.641ms
T6768 000:629.143 JLINK_IsHalted()
T6768 000:631.005   CPU_ReadMem(2 bytes @ 0x20000000)
T6768 000:631.293 - 2.168ms returns TRUE
T6768 000:631.321 JLINK_ReadReg(R15 (PC))
T6768 000:631.332 - 0.015ms returns 0x20000000
T6768 000:631.390 JLINK_ClrBPEx(BPHandle = 0x00000003)
T6768 000:631.403 - 0.017ms returns 0x00
T6768 000:631.414 JLINK_ReadReg(R0)
T6768 000:631.423 - 0.013ms returns 0x00000000
T6768 000:638.362 JLINK_WriteMem(0x20000000, 0x218 Bytes, ...)
T6768 000:638.378   Data:  00 BE 0A E0 0D 78 2D 06 68 40 08 24 40 00 00 D3 ...
T6768 000:638.403   CPU_WriteMem(536 bytes @ 0x20000000)
T6768 000:641.195 - 2.844ms returns 0x218
T6768 000:641.249 JLINK_HasError()
T6768 000:641.262 JLINK_WriteReg(R0, 0x00000000)
T6768 000:641.274 - 0.017ms returns 0
T6768 000:641.285 JLINK_WriteReg(R1, 0x00B71B00)
T6768 000:641.294 - 0.013ms returns 0
T6768 000:641.303 JLINK_WriteReg(R2, 0x00000002)
T6768 000:641.312 - 0.012ms returns 0
T6768 000:641.322 JLINK_WriteReg(R3, 0x00000000)
T6768 000:641.331 - 0.012ms returns 0
T6768 000:641.340 JLINK_WriteReg(R4, 0x00000000)
T6768 000:641.349 - 0.012ms returns 0
T6768 000:641.359 JLINK_WriteReg(R5, 0x00000000)
T6768 000:641.367 - 0.012ms returns 0
T6768 000:641.377 JLINK_WriteReg(R6, 0x00000000)
T6768 000:641.386 - 0.012ms returns 0
T6768 000:641.395 JLINK_WriteReg(R7, 0x00000000)
T6768 000:641.404 - 0.012ms returns 0
T6768 000:641.414 JLINK_WriteReg(R8, 0x00000000)
T6768 000:641.423 - 0.012ms returns 0
T6768 000:641.432 JLINK_WriteReg(R9, 0x20000214)
T6768 000:641.441 - 0.012ms returns 0
T6768 000:641.451 JLINK_WriteReg(R10, 0x00000000)
T6768 000:641.459 - 0.012ms returns 0
T6768 000:641.469 JLINK_WriteReg(R11, 0x00000000)
T6768 000:641.478 - 0.012ms returns 0
T6768 000:641.488 JLINK_WriteReg(R12, 0x00000000)
T6768 000:641.496 - 0.012ms returns 0
T6768 000:641.506 JLINK_WriteReg(R13 (SP), 0x20001000)
T6768 000:641.515 - 0.013ms returns 0
T6768 000:641.525 JLINK_WriteReg(R14, 0x20000001)
T6768 000:641.534 - 0.012ms returns 0
T6768 000:641.544 JLINK_WriteReg(R15 (PC), 0x20000040)
T6768 000:641.552 - 0.012ms returns 0
T6768 000:641.562 JLINK_WriteReg(XPSR, 0x01000000)
T6768 000:641.571 - 0.012ms returns 0
T6768 000:641.581 JLINK_WriteReg(MSP, 0x20001000)
T6768 000:641.589 - 0.012ms returns 0
T6768 000:641.599 JLINK_WriteReg(PSP, 0x20001000)
T6768 000:641.608 - 0.012ms returns 0
T6768 000:641.617 JLINK_WriteReg(CFBP, 0x00000000)
T6768 000:641.634 - 0.020ms returns 0
T6768 000:641.644 JLINK_SetBPEx(Addr = 0x20000000, Type = 0xFFFFFFF2)
T6768 000:641.658   CPU_ReadMem(4 bytes @ 0x20000000)
T6768 000:641.986   CPU_WriteMem(4 bytes @ 0x20000000)
T6768 000:642.308   CPU_ReadMem(4 bytes @ 0x20000000)
T6768 000:642.630   CPU_WriteMem(4 bytes @ 0x20000000)
T6768 000:642.925   CPU_ReadMem(2 bytes @ 0x20000000)
T6768 000:643.181 - 1.543ms returns 0x00000004
T6768 000:643.196 JLINK_Go()
T6768 000:643.208   CPU_WriteMem(2 bytes @ 0x20000000)
T6768 000:643.455   CPU_ReadMem(4 bytes @ 0xE0001000)
T6768 000:643.666   CPU_WriteMem(4 bytes @ 0xE0001000)
T6768 000:645.738 - 2.554ms
T6768 000:645.759 JLINK_IsHalted()
T6768 000:647.531   CPU_ReadMem(2 bytes @ 0x20000000)
T6768 000:647.742 - 1.989ms returns TRUE
T6768 000:647.756 JLINK_ReadReg(R15 (PC))
T6768 000:647.768 - 0.015ms returns 0x20000000
T6768 000:647.778 JLINK_ClrBPEx(BPHandle = 0x00000004)
T6768 000:647.787 - 0.013ms returns 0x00
T6768 000:647.797 JLINK_ReadReg(R0)
T6768 000:647.806 - 0.013ms returns 0x00000000
T6768 000:648.173 JLINK_WriteMem(0x20000218, 0x1E8 Bytes, ...)
T6768 000:648.185   Data:  00 1F 00 20 D9 00 00 00 F3 00 00 00 A9 27 00 00 ...
T6768 000:648.206   CPU_WriteMem(488 bytes @ 0x20000218)
T6768 000:650.768 - 2.601ms returns 0x1E8
T6768 000:650.782 JLINK_WriteMem(0x20000400, 0x18 Bytes, ...)
T6768 000:650.791   Data:  AA 18 12 0C 01 25 AD 03 52 1C 52 19 12 04 7F 39 ...
T6768 000:650.808   CPU_WriteMem(24 bytes @ 0x20000400)
T6768 000:651.141 - 0.366ms returns 0x18
T6768 000:651.157 JLINK_HasError()
T6768 000:651.167 JLINK_WriteReg(R0, 0x00000000)
T6768 000:651.179 - 0.016ms returns 0
T6768 000:651.189 JLINK_WriteReg(R1, 0x00000200)
T6768 000:651.198 - 0.013ms returns 0
T6768 000:651.208 JLINK_WriteReg(R2, 0x20000218)
T6768 000:651.217 - 0.013ms returns 0
T6768 000:651.227 JLINK_WriteReg(R3, 0x00000000)
T6768 000:651.236 - 0.012ms returns 0
T6768 000:651.245 JLINK_WriteReg(R4, 0x00000000)
T6768 000:651.254 - 0.013ms returns 0
T6768 000:651.264 JLINK_WriteReg(R5, 0x00000000)
T6768 000:651.273 - 0.012ms returns 0
T6768 000:651.282 JLINK_WriteReg(R6, 0x00000000)
T6768 000:651.291 - 0.012ms returns 0
T6768 000:651.301 JLINK_WriteReg(R7, 0x00000000)
T6768 000:651.309 - 0.012ms returns 0
T6768 000:651.319 JLINK_WriteReg(R8, 0x00000000)
T6768 000:651.328 - 0.012ms returns 0
T6768 000:651.338 JLINK_WriteReg(R9, 0x20000214)
T6768 000:651.346 - 0.012ms returns 0
T6768 000:651.356 JLINK_WriteReg(R10, 0x00000000)
T6768 000:651.365 - 0.012ms returns 0
T6768 000:651.375 JLINK_WriteReg(R11, 0x00000000)
T6768 000:651.383 - 0.012ms returns 0
T6768 000:651.393 JLINK_WriteReg(R12, 0x00000000)
T6768 000:651.402 - 0.012ms returns 0
T6768 000:651.412 JLINK_WriteReg(R13 (SP), 0x20001000)
T6768 000:651.421 - 0.013ms returns 0
T6768 000:651.431 JLINK_WriteReg(R14, 0x20000001)
T6768 000:651.439 - 0.012ms returns 0
T6768 000:651.449 JLINK_WriteReg(R15 (PC), 0x20000182)
T6768 000:651.458 - 0.013ms returns 0
T6768 000:651.468 JLINK_WriteReg(XPSR, 0x01000000)
T6768 000:651.477 - 0.012ms returns 0
T6768 000:651.486 JLINK_WriteReg(MSP, 0x20001000)
T6768 000:651.495 - 0.012ms returns 0
T6768 000:651.505 JLINK_WriteReg(PSP, 0x20001000)
T6768 000:651.514 - 0.013ms returns 0
T6768 000:651.523 JLINK_WriteReg(CFBP, 0x00000000)
T6768 000:651.532 - 0.012ms returns 0
T6768 000:651.542 JLINK_SetBPEx(Addr = 0x20000000, Type = 0xFFFFFFF2)
T6768 000:651.552 - 0.014ms returns 0x00000005
T6768 000:651.562 JLINK_Go()
T6768 000:651.576   CPU_ReadMem(4 bytes @ 0xE0001000)
T6768 000:651.802   CPU_WriteMem(4 bytes @ 0xE0001000)
T6768 000:653.918 - 2.365ms
T6768 000:653.936 JLINK_IsHalted()
T6768 000:654.181 - 0.252ms returns FALSE
T6768 000:654.196 JLINK_HasError()
T6768 000:657.598 JLINK_IsHalted()
T6768 000:657.886 - 0.306ms returns FALSE
T6768 000:657.913 JLINK_HasError()
T6768 000:659.902 JLINK_IsHalted()
T6768 000:660.196 - 0.311ms returns FALSE
T6768 000:660.222 JLINK_HasError()
T6768 000:662.212 JLINK_IsHalted()
T6768 000:662.557 - 0.356ms returns FALSE
T6768 000:662.577 JLINK_HasError()
T6768 000:664.210 JLINK_IsHalted()
T6768 000:664.547 - 0.355ms returns FALSE
T6768 000:664.573 JLINK_HasError()
T6768 000:666.562 JLINK_IsHalted()
T6768 000:666.850 - 0.305ms returns FALSE
T6768 000:666.876 JLINK_HasError()
T6768 000:668.560 JLINK_IsHalted()
T6768 000:668.865 - 0.322ms returns FALSE
T6768 000:668.891 JLINK_HasError()
T6768 000:670.717 JLINK_IsHalted()
T6768 000:672.683   CPU_ReadMem(2 bytes @ 0x20000000)
T6768 000:673.018 - 2.318ms returns TRUE
T6768 000:673.044 JLINK_ReadReg(R15 (PC))
T6768 000:673.056 - 0.016ms returns 0x20000000
T6768 000:673.066 JLINK_ClrBPEx(BPHandle = 0x00000005)
T6768 000:673.075 - 0.013ms returns 0x00
T6768 000:673.085 JLINK_ReadReg(R0)
T6768 000:673.094 - 0.013ms returns 0x00000000
T6768 000:673.672 JLINK_WriteMem(0x20000218, 0x1E8 Bytes, ...)
T6768 000:673.684   Data:  01 D4 40 00 49 1E C2 B2 0C 06 C0 09 20 18 40 1C ...
T6768 000:673.704   CPU_WriteMem(488 bytes @ 0x20000218)
T6768 000:676.244 - 2.589ms returns 0x1E8
T6768 000:676.271 JLINK_WriteMem(0x20000400, 0x18 Bytes, ...)
T6768 000:676.280   Data:  31 46 C4 17 38 1A A1 41 EE E7 30 B4 01 24 E4 07 ...
T6768 000:676.298   CPU_WriteMem(24 bytes @ 0x20000400)
T6768 000:676.683 - 0.432ms returns 0x18
T6768 000:676.711 JLINK_HasError()
T6768 000:676.722 JLINK_WriteReg(R0, 0x00000200)
T6768 000:676.734 - 0.015ms returns 0
T6768 000:676.744 JLINK_WriteReg(R1, 0x00000200)
T6768 000:676.753 - 0.013ms returns 0
T6768 000:676.763 JLINK_WriteReg(R2, 0x20000218)
T6768 000:676.771 - 0.012ms returns 0
T6768 000:676.781 JLINK_WriteReg(R3, 0x00000000)
T6768 000:676.790 - 0.012ms returns 0
T6768 000:676.800 JLINK_WriteReg(R4, 0x00000000)
T6768 000:676.808 - 0.012ms returns 0
T6768 000:676.818 JLINK_WriteReg(R5, 0x00000000)
T6768 000:676.827 - 0.012ms returns 0
T6768 000:676.837 JLINK_WriteReg(R6, 0x00000000)
T6768 000:676.845 - 0.012ms returns 0
T6768 000:676.855 JLINK_WriteReg(R7, 0x00000000)
T6768 000:676.864 - 0.012ms returns 0
T6768 000:676.873 JLINK_WriteReg(R8, 0x00000000)
T6768 000:676.882 - 0.013ms returns 0
T6768 000:676.892 JLINK_WriteReg(R9, 0x20000214)
T6768 000:676.901 - 0.012ms returns 0
T6768 000:676.910 JLINK_WriteReg(R10, 0x00000000)
T6768 000:676.919 - 0.012ms returns 0
T6768 000:676.929 JLINK_WriteReg(R11, 0x00000000)
T6768 000:676.938 - 0.012ms returns 0
T6768 000:676.947 JLINK_WriteReg(R12, 0x00000000)
T6768 000:676.956 - 0.012ms returns 0
T6768 000:676.966 JLINK_WriteReg(R13 (SP), 0x20001000)
T6768 000:676.975 - 0.013ms returns 0
T6768 000:676.985 JLINK_WriteReg(R14, 0x20000001)
T6768 000:676.993 - 0.012ms returns 0
T6768 000:677.003 JLINK_WriteReg(R15 (PC), 0x20000182)
T6768 000:677.012 - 0.013ms returns 0
T6768 000:677.022 JLINK_WriteReg(XPSR, 0x01000000)
T6768 000:677.031 - 0.013ms returns 0
T6768 000:677.040 JLINK_WriteReg(MSP, 0x20001000)
T6768 000:677.049 - 0.012ms returns 0
T6768 000:677.059 JLINK_WriteReg(PSP, 0x20001000)
T6768 000:677.067 - 0.012ms returns 0
T6768 000:677.077 JLINK_WriteReg(CFBP, 0x00000000)
T6768 000:677.086 - 0.012ms returns 0
T6768 000:677.096 JLINK_SetBPEx(Addr = 0x20000000, Type = 0xFFFFFFF2)
T6768 000:677.105 - 0.013ms returns 0x00000006
T6768 000:677.115 JLINK_Go()
T6768 000:677.130   CPU_ReadMem(4 bytes @ 0xE0001000)
T6768 000:677.398   CPU_WriteMem(4 bytes @ 0xE0001000)
T6768 000:679.613 - 2.508ms
T6768 000:679.633 JLINK_IsHalted()
T6768 000:679.999 - 0.373ms returns FALSE
T6768 000:680.015 JLINK_HasError()
T6768 000:681.692 JLINK_IsHalted()
T6768 000:681.935 - 0.250ms returns FALSE
T6768 000:681.950 JLINK_HasError()
T6768 000:683.812 JLINK_IsHalted()
T6768 000:684.070 - 0.264ms returns FALSE
T6768 000:684.084 JLINK_HasError()
T6768 000:685.693 JLINK_IsHalted()
T6768 000:685.919 - 0.236ms returns FALSE
T6768 000:685.939 JLINK_HasError()
T6768 000:687.736 JLINK_IsHalted()
T6768 000:688.071 - 0.354ms returns FALSE
T6768 000:688.098 JLINK_HasError()
T6768 000:690.085 JLINK_IsHalted()
T6768 000:690.444 - 0.379ms returns FALSE
T6768 000:690.476 JLINK_HasError()
T6768 000:692.459 JLINK_IsHalted()
T6768 000:692.736 - 0.297ms returns FALSE
T6768 000:692.763 JLINK_HasError()
T6768 000:694.743 JLINK_IsHalted()
T6768 000:695.003 - 0.267ms returns FALSE
T6768 000:695.019 JLINK_HasError()
T6768 000:696.749 JLINK_IsHalted()
T6768 000:698.647   CPU_ReadMem(2 bytes @ 0x20000000)
T6768 000:698.933 - 2.202ms returns TRUE
T6768 000:698.959 JLINK_ReadReg(R15 (PC))
T6768 000:698.970 - 0.015ms returns 0x20000000
T6768 000:698.981 JLINK_ClrBPEx(BPHandle = 0x00000006)
T6768 000:698.990 - 0.013ms returns 0x00
T6768 000:699.000 JLINK_ReadReg(R0)
T6768 000:699.009 - 0.013ms returns 0x00000000
T6768 000:699.606 JLINK_WriteMem(0x20000218, 0x1E8 Bytes, ...)
T6768 000:699.619   Data:  01 24 E4 07 61 40 30 BC 4E E7 00 00 00 00 E0 FF ...
T6768 000:699.638   CPU_WriteMem(488 bytes @ 0x20000218)
T6768 000:702.139 - 2.543ms returns 0x1E8
T6768 000:702.159 JLINK_WriteMem(0x20000400, 0x18 Bytes, ...)
T6768 000:702.169   Data:  AD 1A A3 41 02 DB 00 20 01 46 70 BD 12 05 30 18 ...
T6768 000:702.191   CPU_WriteMem(24 bytes @ 0x20000400)
T6768 000:702.557 - 0.405ms returns 0x18
T6768 000:702.573 JLINK_HasError()
T6768 000:702.585 JLINK_WriteReg(R0, 0x00000400)
T6768 000:702.597 - 0.016ms returns 0
T6768 000:702.608 JLINK_WriteReg(R1, 0x00000200)
T6768 000:702.617 - 0.013ms returns 0
T6768 000:702.627 JLINK_WriteReg(R2, 0x20000218)
T6768 000:702.635 - 0.013ms returns 0
T6768 000:702.645 JLINK_WriteReg(R3, 0x00000000)
T6768 000:702.654 - 0.013ms returns 0
T6768 000:702.664 JLINK_WriteReg(R4, 0x00000000)
T6768 000:702.673 - 0.013ms returns 0
T6768 000:702.683 JLINK_WriteReg(R5, 0x00000000)
T6768 000:702.692 - 0.013ms returns 0
T6768 000:702.701 JLINK_WriteReg(R6, 0x00000000)
T6768 000:702.710 - 0.013ms returns 0
T6768 000:702.720 JLINK_WriteReg(R7, 0x00000000)
T6768 000:702.729 - 0.013ms returns 0
T6768 000:702.738 JLINK_WriteReg(R8, 0x00000000)
T6768 000:702.747 - 0.013ms returns 0
T6768 000:702.757 JLINK_WriteReg(R9, 0x20000214)
T6768 000:702.766 - 0.012ms returns 0
T6768 000:702.775 JLINK_WriteReg(R10, 0x00000000)
T6768 000:702.784 - 0.012ms returns 0
T6768 000:702.794 JLINK_WriteReg(R11, 0x00000000)
T6768 000:702.803 - 0.012ms returns 0
T6768 000:702.812 JLINK_WriteReg(R12, 0x00000000)
T6768 000:702.821 - 0.013ms returns 0
T6768 000:702.831 JLINK_WriteReg(R13 (SP), 0x20001000)
T6768 000:702.840 - 0.013ms returns 0
T6768 000:702.850 JLINK_WriteReg(R14, 0x20000001)
T6768 000:702.859 - 0.013ms returns 0
T6768 000:702.869 JLINK_WriteReg(R15 (PC), 0x20000182)
T6768 000:702.878 - 0.013ms returns 0
T6768 000:702.888 JLINK_WriteReg(XPSR, 0x01000000)
T6768 000:702.896 - 0.012ms returns 0
T6768 000:702.906 JLINK_WriteReg(MSP, 0x20001000)
T6768 000:702.915 - 0.012ms returns 0
T6768 000:702.925 JLINK_WriteReg(PSP, 0x20001000)
T6768 000:702.933 - 0.013ms returns 0
T6768 000:702.943 JLINK_WriteReg(CFBP, 0x00000000)
T6768 000:702.952 - 0.012ms returns 0
T6768 000:702.962 JLINK_SetBPEx(Addr = 0x20000000, Type = 0xFFFFFFF2)
T6768 000:702.972 - 0.014ms returns 0x00000007
T6768 000:702.982 JLINK_Go()
T6768 000:702.997   CPU_ReadMem(4 bytes @ 0xE0001000)
T6768 000:703.289   CPU_WriteMem(4 bytes @ 0xE0001000)
T6768 000:705.508 - 2.545ms
T6768 000:705.536 JLINK_IsHalted()
T6768 000:705.807 - 0.289ms returns FALSE
T6768 000:705.833 JLINK_HasError()
T6768 000:708.684 JLINK_IsHalted()
T6768 000:708.968 - 0.302ms returns FALSE
T6768 000:708.995 JLINK_HasError()
T6768 000:710.980 JLINK_IsHalted()
T6768 000:711.218 - 0.245ms returns FALSE
T6768 000:711.234 JLINK_HasError()
T6768 000:713.129 JLINK_IsHalted()
T6768 000:713.403 - 0.304ms returns FALSE
T6768 000:713.432 JLINK_HasError()
T6768 000:715.119 JLINK_IsHalted()
T6768 000:715.392 - 0.279ms returns FALSE
T6768 000:715.406 JLINK_HasError()
T6768 000:717.137 JLINK_IsHalted()
T6768 000:717.437 - 0.317ms returns FALSE
T6768 000:717.463 JLINK_HasError()
T6768 000:719.457 JLINK_IsHalted()
T6768 000:719.748 - 0.308ms returns FALSE
T6768 000:719.773 JLINK_HasError()
T6768 000:721.762 JLINK_IsHalted()
T6768 000:723.666   CPU_ReadMem(2 bytes @ 0x20000000)
T6768 000:723.968 - 2.213ms returns TRUE
T6768 000:723.984 JLINK_ReadReg(R15 (PC))
T6768 000:723.995 - 0.016ms returns 0x20000000
T6768 000:724.006 JLINK_ClrBPEx(BPHandle = 0x00000007)
T6768 000:724.015 - 0.013ms returns 0x00
T6768 000:724.025 JLINK_ReadReg(R0)
T6768 000:724.034 - 0.012ms returns 0x00000000
T6768 000:724.601 JLINK_WriteMem(0x20000218, 0x1E8 Bytes, ...)
T6768 000:724.614   Data:  50 40 10 B5 40 18 CA 07 96 23 00 21 00 F0 E4 F8 ...
T6768 000:724.633   CPU_WriteMem(488 bytes @ 0x20000218)
T6768 000:727.176 - 2.582ms returns 0x1E8
T6768 000:727.191 JLINK_WriteMem(0x20000400, 0x18 Bytes, ...)
T6768 000:727.201   Data:  21 D0 11 24 05 0E 01 D1 00 02 08 34 05 0F 01 D1 ...
T6768 000:727.218   CPU_WriteMem(24 bytes @ 0x20000400)
T6768 000:727.671 - 0.487ms returns 0x18
T6768 000:727.687 JLINK_HasError()
T6768 000:727.698 JLINK_WriteReg(R0, 0x00000600)
T6768 000:727.710 - 0.015ms returns 0
T6768 000:727.720 JLINK_WriteReg(R1, 0x00000200)
T6768 000:727.729 - 0.013ms returns 0
T6768 000:727.738 JLINK_WriteReg(R2, 0x20000218)
T6768 000:727.747 - 0.012ms returns 0
T6768 000:727.757 JLINK_WriteReg(R3, 0x00000000)
T6768 000:727.769 - 0.016ms returns 0
T6768 000:727.779 JLINK_WriteReg(R4, 0x00000000)
T6768 000:727.788 - 0.012ms returns 0
T6768 000:727.797 JLINK_WriteReg(R5, 0x00000000)
T6768 000:727.813 - 0.021ms returns 0
T6768 000:727.827 JLINK_WriteReg(R6, 0x00000000)
T6768 000:727.839 - 0.017ms returns 0
T6768 000:727.852 JLINK_WriteReg(R7, 0x00000000)
T6768 000:727.864 - 0.016ms returns 0
T6768 000:727.877 JLINK_WriteReg(R8, 0x00000000)
T6768 000:727.888 - 0.017ms returns 0
T6768 000:727.901 JLINK_WriteReg(R9, 0x20000214)
T6768 000:727.912 - 0.016ms returns 0
T6768 000:727.926 JLINK_WriteReg(R10, 0x00000000)
T6768 000:727.938 - 0.016ms returns 0
T6768 000:727.950 JLINK_WriteReg(R11, 0x00000000)
T6768 000:727.962 - 0.017ms returns 0
T6768 000:727.974 JLINK_WriteReg(R12, 0x00000000)
T6768 000:727.986 - 0.016ms returns 0
T6768 000:727.998 JLINK_WriteReg(R13 (SP), 0x20001000)
T6768 000:728.010 - 0.017ms returns 0
T6768 000:728.023 JLINK_WriteReg(R14, 0x20000001)
T6768 000:728.035 - 0.016ms returns 0
T6768 000:728.047 JLINK_WriteReg(R15 (PC), 0x20000182)
T6768 000:728.059 - 0.017ms returns 0
T6768 000:728.071 JLINK_WriteReg(XPSR, 0x01000000)
T6768 000:728.083 - 0.016ms returns 0
T6768 000:728.095 JLINK_WriteReg(MSP, 0x20001000)
T6768 000:728.107 - 0.017ms returns 0
T6768 000:728.119 JLINK_WriteReg(PSP, 0x20001000)
T6768 000:728.131 - 0.017ms returns 0
T6768 000:728.144 JLINK_WriteReg(CFBP, 0x00000000)
T6768 000:728.156 - 0.017ms returns 0
T6768 000:728.169 JLINK_SetBPEx(Addr = 0x20000000, Type = 0xFFFFFFF2)
T6768 000:728.182 - 0.019ms returns 0x00000008
T6768 000:728.195 JLINK_Go()
T6768 000:728.215   CPU_ReadMem(4 bytes @ 0xE0001000)
T6768 000:728.526   CPU_WriteMem(4 bytes @ 0xE0001000)
T6768 000:730.785 - 2.597ms
T6768 000:730.801 JLINK_IsHalted()
T6768 000:731.060 - 0.266ms returns FALSE
T6768 000:731.076 JLINK_HasError()
T6768 000:732.669 JLINK_IsHalted()
T6768 000:732.945 - 0.294ms returns FALSE
T6768 000:732.972 JLINK_HasError()
T6768 000:734.961 JLINK_IsHalted()
T6768 000:735.238 - 0.297ms returns FALSE
T6768 000:735.266 JLINK_HasError()
T6768 000:737.252 JLINK_IsHalted()
T6768 000:737.532 - 0.300ms returns FALSE
T6768 000:737.560 JLINK_HasError()
T6768 000:739.545 JLINK_IsHalted()
T6768 000:739.817 - 0.291ms returns FALSE
T6768 000:739.845 JLINK_HasError()
T6768 000:741.544 JLINK_IsHalted()
T6768 000:741.860 - 0.336ms returns FALSE
T6768 000:741.889 JLINK_HasError()
T6768 000:743.873 JLINK_IsHalted()
T6768 000:744.127 - 0.261ms returns FALSE
T6768 000:744.142 JLINK_HasError()
T6768 000:745.876 JLINK_IsHalted()
T6768 000:746.158 - 0.301ms returns FALSE
T6768 000:746.186 JLINK_HasError()
T6768 000:747.872 JLINK_IsHalted()
T6768 000:749.752   CPU_ReadMem(2 bytes @ 0x20000000)
T6768 000:750.038 - 2.183ms returns TRUE
T6768 000:750.064 JLINK_ReadReg(R15 (PC))
T6768 000:750.083 - 0.023ms returns 0x20000000
T6768 000:750.094 JLINK_ClrBPEx(BPHandle = 0x00000008)
T6768 000:750.103 - 0.013ms returns 0x00
T6768 000:750.113 JLINK_ReadReg(R0)
T6768 000:750.122 - 0.012ms returns 0x00000000
T6768 000:750.726 JLINK_WriteMem(0x20000218, 0x1E8 Bytes, ...)
T6768 000:750.739   Data:  80 00 A4 1C 00 28 01 DB 40 00 64 1C 00 29 08 D0 ...
T6768 000:750.759   CPU_WriteMem(488 bytes @ 0x20000218)
T6768 000:753.288 - 2.580ms returns 0x1E8
T6768 000:753.315 JLINK_WriteMem(0x20000400, 0x18 Bytes, ...)
T6768 000:753.324   Data:  38 43 20 60 4A E0 21 68 1F 20 80 02 81 43 31 43 ...
T6768 000:753.341   CPU_WriteMem(24 bytes @ 0x20000400)
T6768 000:753.779 - 0.483ms returns 0x18
T6768 000:753.807 JLINK_HasError()
T6768 000:753.817 JLINK_WriteReg(R0, 0x00000800)
T6768 000:753.828 - 0.015ms returns 0
T6768 000:753.838 JLINK_WriteReg(R1, 0x00000200)
T6768 000:753.847 - 0.013ms returns 0
T6768 000:753.857 JLINK_WriteReg(R2, 0x20000218)
T6768 000:753.866 - 0.012ms returns 0
T6768 000:753.875 JLINK_WriteReg(R3, 0x00000000)
T6768 000:753.884 - 0.012ms returns 0
T6768 000:753.894 JLINK_WriteReg(R4, 0x00000000)
T6768 000:753.902 - 0.012ms returns 0
T6768 000:753.912 JLINK_WriteReg(R5, 0x00000000)
T6768 000:753.921 - 0.012ms returns 0
T6768 000:753.930 JLINK_WriteReg(R6, 0x00000000)
T6768 000:753.939 - 0.012ms returns 0
T6768 000:753.949 JLINK_WriteReg(R7, 0x00000000)
T6768 000:753.957 - 0.012ms returns 0
T6768 000:753.967 JLINK_WriteReg(R8, 0x00000000)
T6768 000:753.976 - 0.012ms returns 0
T6768 000:753.985 JLINK_WriteReg(R9, 0x20000214)
T6768 000:753.994 - 0.012ms returns 0
T6768 000:754.004 JLINK_WriteReg(R10, 0x00000000)
T6768 000:754.013 - 0.012ms returns 0
T6768 000:754.022 JLINK_WriteReg(R11, 0x00000000)
T6768 000:754.031 - 0.012ms returns 0
T6768 000:754.041 JLINK_WriteReg(R12, 0x00000000)
T6768 000:754.049 - 0.012ms returns 0
T6768 000:754.059 JLINK_WriteReg(R13 (SP), 0x20001000)
T6768 000:754.068 - 0.013ms returns 0
T6768 000:754.078 JLINK_WriteReg(R14, 0x20000001)
T6768 000:754.087 - 0.012ms returns 0
T6768 000:754.096 JLINK_WriteReg(R15 (PC), 0x20000182)
T6768 000:754.105 - 0.012ms returns 0
T6768 000:754.115 JLINK_WriteReg(XPSR, 0x01000000)
T6768 000:754.124 - 0.012ms returns 0
T6768 000:754.134 JLINK_WriteReg(MSP, 0x20001000)
T6768 000:754.142 - 0.012ms returns 0
T6768 000:754.152 JLINK_WriteReg(PSP, 0x20001000)
T6768 000:754.161 - 0.012ms returns 0
T6768 000:754.170 JLINK_WriteReg(CFBP, 0x00000000)
T6768 000:754.179 - 0.012ms returns 0
T6768 000:754.189 JLINK_SetBPEx(Addr = 0x20000000, Type = 0xFFFFFFF2)
T6768 000:754.199 - 0.013ms returns 0x00000009
T6768 000:754.208 JLINK_Go()
T6768 000:754.223   CPU_ReadMem(4 bytes @ 0xE0001000)
T6768 000:754.563   CPU_WriteMem(4 bytes @ 0xE0001000)
T6768 000:756.746 - 2.544ms
T6768 000:756.760 JLINK_IsHalted()
T6768 000:757.023 - 0.269ms returns FALSE
T6768 000:757.040 JLINK_HasError()
T6768 000:759.052 JLINK_IsHalted()
T6768 000:759.291 - 0.245ms returns FALSE
T6768 000:759.305 JLINK_HasError()
T6768 000:761.322 JLINK_IsHalted()
T6768 000:761.617 - 0.315ms returns FALSE
T6768 000:761.645 JLINK_HasError()
T6768 000:763.315 JLINK_IsHalted()
T6768 000:763.591 - 0.295ms returns FALSE
T6768 000:763.618 JLINK_HasError()
T6768 000:766.313 JLINK_IsHalted()
T6768 000:766.578 - 0.272ms returns FALSE
T6768 000:766.593 JLINK_HasError()
T6768 000:768.311 JLINK_IsHalted()
T6768 000:768.591 - 0.300ms returns FALSE
T6768 000:768.619 JLINK_HasError()
T6768 000:770.604 JLINK_IsHalted()
T6768 000:770.865 - 0.267ms returns FALSE
T6768 000:770.879 JLINK_HasError()
T6768 000:772.604 JLINK_IsHalted()
T6768 000:772.938 - 0.340ms returns FALSE
T6768 000:772.952 JLINK_HasError()
T6768 000:774.951 JLINK_IsHalted()
T6768 000:776.906   CPU_ReadMem(2 bytes @ 0x20000000)
T6768 000:777.178 - 2.234ms returns TRUE
T6768 000:777.192 JLINK_ReadReg(R15 (PC))
T6768 000:777.204 - 0.015ms returns 0x20000000
T6768 000:777.214 JLINK_ClrBPEx(BPHandle = 0x00000009)
T6768 000:777.223 - 0.017ms returns 0x00
T6768 000:777.241 JLINK_ReadReg(R0)
T6768 000:777.250 - 0.013ms returns 0x00000000
T6768 000:777.835 JLINK_WriteMem(0x20000218, 0x1E8 Bytes, ...)
T6768 000:777.851   Data:  C9 03 88 43 28 43 F0 E7 20 68 1F 21 09 05 88 43 ...
T6768 000:777.878   CPU_WriteMem(488 bytes @ 0x20000218)
T6768 000:780.408 - 2.590ms returns 0x1E8
T6768 000:780.437 JLINK_WriteMem(0x20000400, 0x18 Bytes, ...)
T6768 000:780.447   Data:  A5 FD 00 21 40 20 01 F0 A1 FD 0B 21 40 20 01 F0 ...
T6768 000:780.472   CPU_WriteMem(24 bytes @ 0x20000400)
T6768 000:780.845 - 0.415ms returns 0x18
T6768 000:780.862 JLINK_HasError()
T6768 000:780.873 JLINK_WriteReg(R0, 0x00000A00)
T6768 000:780.886 - 0.016ms returns 0
T6768 000:780.896 JLINK_WriteReg(R1, 0x00000200)
T6768 000:780.905 - 0.013ms returns 0
T6768 000:780.915 JLINK_WriteReg(R2, 0x20000218)
T6768 000:780.924 - 0.013ms returns 0
T6768 000:780.934 JLINK_WriteReg(R3, 0x00000000)
T6768 000:780.942 - 0.012ms returns 0
T6768 000:780.952 JLINK_WriteReg(R4, 0x00000000)
T6768 000:780.961 - 0.012ms returns 0
T6768 000:780.971 JLINK_WriteReg(R5, 0x00000000)
T6768 000:780.979 - 0.012ms returns 0
T6768 000:780.989 JLINK_WriteReg(R6, 0x00000000)
T6768 000:780.998 - 0.012ms returns 0
T6768 000:781.007 JLINK_WriteReg(R7, 0x00000000)
T6768 000:781.016 - 0.012ms returns 0
T6768 000:781.026 JLINK_WriteReg(R8, 0x00000000)
T6768 000:781.034 - 0.012ms returns 0
T6768 000:781.044 JLINK_WriteReg(R9, 0x20000214)
T6768 000:781.053 - 0.012ms returns 0
T6768 000:781.063 JLINK_WriteReg(R10, 0x00000000)
T6768 000:781.071 - 0.012ms returns 0
T6768 000:781.081 JLINK_WriteReg(R11, 0x00000000)
T6768 000:781.090 - 0.012ms returns 0
T6768 000:781.100 JLINK_WriteReg(R12, 0x00000000)
T6768 000:781.108 - 0.012ms returns 0
T6768 000:781.118 JLINK_WriteReg(R13 (SP), 0x20001000)
T6768 000:781.127 - 0.013ms returns 0
T6768 000:781.137 JLINK_WriteReg(R14, 0x20000001)
T6768 000:781.146 - 0.012ms returns 0
T6768 000:781.156 JLINK_WriteReg(R15 (PC), 0x20000182)
T6768 000:781.164 - 0.013ms returns 0
T6768 000:781.174 JLINK_WriteReg(XPSR, 0x01000000)
T6768 000:781.183 - 0.012ms returns 0
T6768 000:781.193 JLINK_WriteReg(MSP, 0x20001000)
T6768 000:781.201 - 0.012ms returns 0
T6768 000:781.211 JLINK_WriteReg(PSP, 0x20001000)
T6768 000:781.220 - 0.012ms returns 0
T6768 000:781.230 JLINK_WriteReg(CFBP, 0x00000000)
T6768 000:781.238 - 0.012ms returns 0
T6768 000:781.248 JLINK_SetBPEx(Addr = 0x20000000, Type = 0xFFFFFFF2)
T6768 000:781.258 - 0.014ms returns 0x0000000A
T6768 000:781.268 JLINK_Go()
T6768 000:781.283   CPU_ReadMem(4 bytes @ 0xE0001000)
T6768 000:781.571   CPU_WriteMem(4 bytes @ 0xE0001000)
T6768 000:783.808 - 2.559ms
T6768 000:783.838 JLINK_IsHalted()
T6768 000:784.103 - 0.272ms returns FALSE
T6768 000:784.119 JLINK_HasError()
T6768 000:786.115 JLINK_IsHalted()
T6768 000:786.369 - 0.260ms returns FALSE
T6768 000:786.383 JLINK_HasError()
T6768 000:788.364 JLINK_IsHalted()
T6768 000:788.683 - 0.338ms returns FALSE
T6768 000:788.710 JLINK_HasError()
T6768 000:790.685 JLINK_IsHalted()
T6768 000:790.957 - 0.278ms returns FALSE
T6768 000:790.972 JLINK_HasError()
T6768 000:792.695 JLINK_IsHalted()
T6768 000:792.969 - 0.293ms returns FALSE
T6768 000:792.996 JLINK_HasError()
T6768 000:794.684 JLINK_IsHalted()
T6768 000:794.946 - 0.269ms returns FALSE
T6768 000:794.963 JLINK_HasError()
T6768 000:796.695 JLINK_IsHalted()
T6768 000:796.949 - 0.261ms returns FALSE
T6768 000:796.964 JLINK_HasError()
T6768 000:798.696 JLINK_IsHalted()
T6768 000:798.973 - 0.297ms returns FALSE
T6768 000:799.001 JLINK_HasError()
T6768 000:800.977 JLINK_IsHalted()
T6768 000:802.800   CPU_ReadMem(2 bytes @ 0x20000000)
T6768 000:803.090 - 2.119ms returns TRUE
T6768 000:803.104 JLINK_ReadReg(R15 (PC))
T6768 000:803.116 - 0.015ms returns 0x20000000
T6768 000:803.126 JLINK_ClrBPEx(BPHandle = 0x0000000A)
T6768 000:803.137 - 0.016ms returns 0x00
T6768 000:803.149 JLINK_ReadReg(R0)
T6768 000:803.166 - 0.023ms returns 0x00000000
T6768 000:803.811 JLINK_WriteMem(0x20000218, 0x1E8 Bytes, ...)
T6768 000:803.829   Data:  68 46 03 F0 2D FD 00 20 69 46 88 70 48 70 06 20 ...
T6768 000:803.854   CPU_WriteMem(488 bytes @ 0x20000218)
T6768 000:806.375 - 2.570ms returns 0x1E8
T6768 000:806.389 JLINK_WriteMem(0x20000400, 0x18 Bytes, ...)
T6768 000:806.399   Data:  00 93 FF F7 73 FC 20 64 3A 46 00 9B E9 68 A8 68 ...
T6768 000:806.416   CPU_WriteMem(24 bytes @ 0x20000400)
T6768 000:806.868 - 0.489ms returns 0x18
T6768 000:806.892 JLINK_HasError()
T6768 000:806.906 JLINK_WriteReg(R0, 0x00000C00)
T6768 000:806.918 - 0.016ms returns 0
T6768 000:806.928 JLINK_WriteReg(R1, 0x00000200)
T6768 000:806.937 - 0.013ms returns 0
T6768 000:806.947 JLINK_WriteReg(R2, 0x20000218)
T6768 000:806.955 - 0.012ms returns 0
T6768 000:806.965 JLINK_WriteReg(R3, 0x00000000)
T6768 000:806.974 - 0.012ms returns 0
T6768 000:806.983 JLINK_WriteReg(R4, 0x00000000)
T6768 000:806.992 - 0.012ms returns 0
T6768 000:807.002 JLINK_WriteReg(R5, 0x00000000)
T6768 000:807.010 - 0.012ms returns 0
T6768 000:807.020 JLINK_WriteReg(R6, 0x00000000)
T6768 000:807.029 - 0.012ms returns 0
T6768 000:807.039 JLINK_WriteReg(R7, 0x00000000)
T6768 000:807.047 - 0.012ms returns 0
T6768 000:807.057 JLINK_WriteReg(R8, 0x00000000)
T6768 000:807.065 - 0.012ms returns 0
T6768 000:807.075 JLINK_WriteReg(R9, 0x20000214)
T6768 000:807.084 - 0.012ms returns 0
T6768 000:807.093 JLINK_WriteReg(R10, 0x00000000)
T6768 000:807.102 - 0.014ms returns 0
T6768 000:807.116 JLINK_WriteReg(R11, 0x00000000)
T6768 000:807.132 - 0.022ms returns 0
T6768 000:807.147 JLINK_WriteReg(R12, 0x00000000)
T6768 000:807.164 - 0.021ms returns 0
T6768 000:807.175 JLINK_WriteReg(R13 (SP), 0x20001000)
T6768 000:807.184 - 0.013ms returns 0
T6768 000:807.194 JLINK_WriteReg(R14, 0x20000001)
T6768 000:807.202 - 0.012ms returns 0
T6768 000:807.212 JLINK_WriteReg(R15 (PC), 0x20000182)
T6768 000:807.221 - 0.013ms returns 0
T6768 000:807.231 JLINK_WriteReg(XPSR, 0x01000000)
T6768 000:807.239 - 0.012ms returns 0
T6768 000:807.249 JLINK_WriteReg(MSP, 0x20001000)
T6768 000:807.258 - 0.012ms returns 0
T6768 000:807.267 JLINK_WriteReg(PSP, 0x20001000)
T6768 000:807.276 - 0.012ms returns 0
T6768 000:807.286 JLINK_WriteReg(CFBP, 0x00000000)
T6768 000:807.295 - 0.012ms returns 0
T6768 000:807.304 JLINK_SetBPEx(Addr = 0x20000000, Type = 0xFFFFFFF2)
T6768 000:807.314 - 0.014ms returns 0x0000000B
T6768 000:807.324 JLINK_Go()
T6768 000:807.339   CPU_ReadMem(4 bytes @ 0xE0001000)
T6768 000:807.717   CPU_WriteMem(4 bytes @ 0xE0001000)
T6768 000:809.827 - 2.510ms
T6768 000:809.848 JLINK_IsHalted()
T6768 000:810.069 - 0.229ms returns FALSE
T6768 000:810.088 JLINK_HasError()
T6768 000:812.682 JLINK_IsHalted()
T6768 000:813.018 - 0.344ms returns FALSE
T6768 000:813.034 JLINK_HasError()
T6768 000:815.010 JLINK_IsHalted()
T6768 000:815.260 - 0.258ms returns FALSE
T6768 000:815.276 JLINK_HasError()
T6768 000:817.272 JLINK_IsHalted()
T6768 000:817.542 - 0.288ms returns FALSE
T6768 000:817.569 JLINK_HasError()
T6768 000:819.559 JLINK_IsHalted()
T6768 000:819.848 - 0.306ms returns FALSE
T6768 000:819.873 JLINK_HasError()
T6768 000:821.857 JLINK_IsHalted()
T6768 000:822.129 - 0.291ms returns FALSE
T6768 000:822.157 JLINK_HasError()
T6768 000:823.836 JLINK_IsHalted()
T6768 000:824.140 - 0.311ms returns FALSE
T6768 000:824.155 JLINK_HasError()
T6768 000:825.856 JLINK_IsHalted()
T6768 000:826.159 - 0.323ms returns FALSE
T6768 000:826.187 JLINK_HasError()
T6768 000:828.160 JLINK_IsHalted()
T6768 000:829.985   CPU_ReadMem(2 bytes @ 0x20000000)
T6768 000:830.282 - 2.140ms returns TRUE
T6768 000:830.310 JLINK_ReadReg(R15 (PC))
T6768 000:830.321 - 0.016ms returns 0x20000000
T6768 000:830.332 JLINK_ClrBPEx(BPHandle = 0x0000000B)
T6768 000:830.341 - 0.013ms returns 0x00
T6768 000:830.351 JLINK_ReadReg(R0)
T6768 000:830.360 - 0.013ms returns 0x00000000
T6768 000:830.958 JLINK_WriteMem(0x20000218, 0x1E8 Bytes, ...)
T6768 000:830.970   Data:  00 92 03 CD FF F7 04 FB 00 22 D4 4B FF F7 68 FB ...
T6768 000:830.991   CPU_WriteMem(488 bytes @ 0x20000218)
T6768 000:833.520 - 2.569ms returns 0x1E8
T6768 000:833.535 JLINK_WriteMem(0x20000400, 0x18 Bytes, ...)
T6768 000:833.544   Data:  FF F7 94 F8 0A 21 FF F7 91 F8 90 35 29 70 7D 21 ...
T6768 000:833.561   CPU_WriteMem(24 bytes @ 0x20000400)
T6768 000:833.934 - 0.419ms returns 0x18
T6768 000:833.962 JLINK_HasError()
T6768 000:833.973 JLINK_WriteReg(R0, 0x00000E00)
T6768 000:833.984 - 0.015ms returns 0
T6768 000:833.994 JLINK_WriteReg(R1, 0x00000200)
T6768 000:834.003 - 0.013ms returns 0
T6768 000:834.012 JLINK_WriteReg(R2, 0x20000218)
T6768 000:834.021 - 0.012ms returns 0
T6768 000:834.031 JLINK_WriteReg(R3, 0x00000000)
T6768 000:834.040 - 0.012ms returns 0
T6768 000:834.049 JLINK_WriteReg(R4, 0x00000000)
T6768 000:834.058 - 0.012ms returns 0
T6768 000:834.068 JLINK_WriteReg(R5, 0x00000000)
T6768 000:834.076 - 0.012ms returns 0
T6768 000:834.086 JLINK_WriteReg(R6, 0x00000000)
T6768 000:834.095 - 0.012ms returns 0
T6768 000:834.104 JLINK_WriteReg(R7, 0x00000000)
T6768 000:834.113 - 0.012ms returns 0
T6768 000:834.123 JLINK_WriteReg(R8, 0x00000000)
T6768 000:834.132 - 0.012ms returns 0
T6768 000:834.141 JLINK_WriteReg(R9, 0x20000214)
T6768 000:834.150 - 0.012ms returns 0
T6768 000:834.160 JLINK_WriteReg(R10, 0x00000000)
T6768 000:834.168 - 0.012ms returns 0
T6768 000:834.178 JLINK_WriteReg(R11, 0x00000000)
T6768 000:834.187 - 0.012ms returns 0
T6768 000:834.197 JLINK_WriteReg(R12, 0x00000000)
T6768 000:834.205 - 0.012ms returns 0
T6768 000:834.215 JLINK_WriteReg(R13 (SP), 0x20001000)
T6768 000:834.224 - 0.013ms returns 0
T6768 000:834.234 JLINK_WriteReg(R14, 0x20000001)
T6768 000:834.243 - 0.012ms returns 0
T6768 000:834.252 JLINK_WriteReg(R15 (PC), 0x20000182)
T6768 000:834.261 - 0.013ms returns 0
T6768 000:834.271 JLINK_WriteReg(XPSR, 0x01000000)
T6768 000:834.280 - 0.012ms returns 0
T6768 000:834.290 JLINK_WriteReg(MSP, 0x20001000)
